! 4/14/2023 22:39:13
! D:\FILTER\1900M2.S2P
! CHANNEL.1
! TR.MEASUREMENT
! CORRECTED.DATA
# GHZ S RI R 50.0
! FREQ.GHZ         S11RE         S11IM         S21RE         S21IM         S12RE         S12IM         S22RE         S22IM         
!; PortSelection: Port_12
   1.840140000    -0.7683210   -0.6350121     0.0006237   -0.0008623     0.0006289   -0.0008650    -0.7732394   -0.6254743 
   1.840520000    -0.7703543   -0.6323130     0.0006344   -0.0008749     0.0006364   -0.0008739    -0.7752982   -0.6228316 
   1.840900000    -0.7724751   -0.6296096     0.0006422   -0.0008928     0.0006420   -0.0009019    -0.7773683   -0.6201159 
   1.841280000    -0.7744796   -0.6267799     0.0006519   -0.0009085     0.0006603   -0.0009128    -0.7795677   -0.6174451 
   1.841660000    -0.7763528   -0.6239858     0.0006640   -0.0009271     0.0006704   -0.0009306    -0.7813658   -0.6146035 
   1.842040000    -0.7785746   -0.6212158     0.0006677   -0.0009560     0.0006802   -0.0009494    -0.7834691   -0.6118788 
   1.842420000    -0.7804976   -0.6181727     0.0006820   -0.0009724     0.0006833   -0.0009789    -0.7855359   -0.6092062 
   1.842800000    -0.7827727   -0.6154788     0.0006915   -0.0009932     0.0007002   -0.0009984    -0.7875487   -0.6062173 
   1.843180000    -0.7849426   -0.6128542     0.0006970   -0.0010146     0.0007067   -0.0010239    -0.7895012   -0.6035674 
   1.843560000    -0.7869667   -0.6100988     0.0007061   -0.0010393     0.0007045   -0.0010411    -0.7914337   -0.6004236 
   1.843940000    -0.7890965   -0.6073301     0.0007231   -0.0010666     0.0007189   -0.0010661    -0.7934594   -0.5976959 
   1.844320000    -0.7912813   -0.6043835     0.0007308   -0.0010854     0.0007279   -0.0010920    -0.7955858   -0.5949954 
   1.844700000    -0.7933918   -0.6015006     0.0007397   -0.0011105     0.0007485   -0.0011290    -0.7974823   -0.5918950 
   1.845080000    -0.7954974   -0.5985326     0.0007488   -0.0011287     0.0007534   -0.0011413    -0.7996662   -0.5890715 
   1.845460000    -0.7975789   -0.5955639     0.0007623   -0.0011551     0.0007693   -0.0011696    -0.8015141   -0.5860130 
   1.845840000    -0.7996786   -0.5925375     0.0007752   -0.0011863     0.0007703   -0.0011942    -0.8036411   -0.5829074 
   1.846220000    -0.8017885   -0.5893121     0.0007881   -0.0012100     0.0007885   -0.0012214    -0.8057975   -0.5799707 
   1.846600000    -0.8040395   -0.5862374     0.0007835   -0.0012380     0.0007918   -0.0012468    -0.8078282   -0.5768651 
   1.846980000    -0.8060129   -0.5831536     0.0007970   -0.0012710     0.0008026   -0.0012842    -0.8100892   -0.5738912 
   1.847360000    -0.8082371   -0.5799986     0.0008165   -0.0013030     0.0008127   -0.0013050    -0.8121344   -0.5707712 
   1.847740000    -0.8104992   -0.5766336     0.0008233   -0.0013225     0.0008263   -0.0013385    -0.8141667   -0.5676851 
   1.848120000    -0.8127244   -0.5734872     0.0008366   -0.0013538     0.0008344   -0.0013699    -0.8163725   -0.5643613 
   1.848500000    -0.8144951   -0.5704056     0.0008394   -0.0013872     0.0008499   -0.0013906    -0.8185396   -0.5613459 
   1.848880000    -0.8166798   -0.5671774     0.0008507   -0.0014204     0.0008601   -0.0014225    -0.8203526   -0.5577227 
   1.849260000    -0.8187239   -0.5638212     0.0008623   -0.0014567     0.0008643   -0.0014697    -0.8226703   -0.5546072 
   1.849640000    -0.8206974   -0.5604637     0.0008813   -0.0014893     0.0008845   -0.0015070    -0.8247300   -0.5513220 
   1.850020000    -0.8228751   -0.5570021     0.0008927   -0.0015239     0.0008962   -0.0015379    -0.8268494   -0.5480661 
   1.850400000    -0.8250951   -0.5536822     0.0009069   -0.0015545     0.0009066   -0.0015729    -0.8290797   -0.5446578 
   1.850780000    -0.8271107   -0.5502602     0.0009148   -0.0015929     0.0009268   -0.0016026    -0.8311013   -0.5410525 
   1.851160000    -0.8294511   -0.5469126     0.0009218   -0.0016251     0.0009315   -0.0016374    -0.8329991   -0.5376355 
   1.851540000    -0.8313729   -0.5435677     0.0009366   -0.0016761     0.0009482   -0.0016832    -0.8352272   -0.5344068 
   1.851920000    -0.8337542   -0.5400538     0.0009586   -0.0017091     0.0009543   -0.0017224    -0.8371418   -0.5308880 
   1.852300000    -0.8360972   -0.5363719     0.0009663   -0.0017426     0.0009731   -0.0017625    -0.8391781   -0.5273747 
   1.852680000    -0.8381784   -0.5330452     0.0009793   -0.0017916     0.0009848   -0.0017979    -0.8412062   -0.5238891 
   1.853060000    -0.8403090   -0.5292530     0.0009832   -0.0018299     0.0009988   -0.0018398    -0.8436129   -0.5200920 
   1.853440000    -0.8424302   -0.5258472     0.0010019   -0.0018842     0.0009990   -0.0018850    -0.8457089   -0.5165884 
   1.853820000    -0.8442904   -0.5219664     0.0010171   -0.0019241     0.0010130   -0.0019249    -0.8478099   -0.5129026 
   1.854200000    -0.8466761   -0.5184196     0.0010369   -0.0019677     0.0010257   -0.0019697    -0.8497814   -0.5094239 
   1.854580000    -0.8485185   -0.5147500     0.0010462   -0.0020141     0.0010471   -0.0020214    -0.8519679   -0.5055215 
   1.854960000    -0.8507994   -0.5110202     0.0010516   -0.0020673     0.0010656   -0.0020734    -0.8541678   -0.5017155 
   1.855340000    -0.8529754   -0.5070644     0.0010721   -0.0021123     0.0010770   -0.0021252    -0.8561731   -0.4981419 
   1.855720000    -0.8553867   -0.5031592     0.0010867   -0.0021575     0.0010934   -0.0021690    -0.8583807   -0.4943387 
   1.856100000    -0.8573295   -0.4990440     0.0010997   -0.0022123     0.0010961   -0.0022230    -0.8602098   -0.4903608 
   1.856480000    -0.8596246   -0.4951026     0.0011085   -0.0022707     0.0011103   -0.0022875    -0.8624639   -0.4863043 
   1.856860000    -0.8618594   -0.4913352     0.0011192   -0.0023224     0.0011221   -0.0023401    -0.8642341   -0.4827521 
   1.857240000    -0.8636585   -0.4873526     0.0011343   -0.0023864     0.0011357   -0.0024012    -0.8662446   -0.4786413 
   1.857620000    -0.8658472   -0.4833547     0.0011486   -0.0024483     0.0011548   -0.0024558    -0.8684738   -0.4744608 
   1.858000000    -0.8679046   -0.4793749     0.0011627   -0.0025011     0.0011649   -0.0025142    -0.8705525   -0.4704541 
   1.858380000    -0.8701747   -0.4751874     0.0011677   -0.0025657     0.0011820   -0.0025722    -0.8725398   -0.4664081 
   1.858760000    -0.8722706   -0.4711945     0.0011881   -0.0026329     0.0012005   -0.0026408    -0.8747258   -0.4622252 
   1.859140000    -0.8743384   -0.4667566     0.0012035   -0.0027029     0.0012116   -0.0027042    -0.8766287   -0.4579435 
   1.859520000    -0.8764472   -0.4626700     0.0012259   -0.0027683     0.0012231   -0.0027714    -0.8787570   -0.4537065 
   1.859900000    -0.8785356   -0.4584903     0.0012291   -0.0028373     0.0012456   -0.0028504    -0.8808510   -0.4494433 
   1.860280000    -0.8805355   -0.4540731     0.0012519   -0.0029138     0.0012629   -0.0029237    -0.8828345   -0.4449707 
   1.860660000    -0.8826155   -0.4496897     0.0012667   -0.0029828     0.0012637   -0.0029963    -0.8849316   -0.4405072 
   1.861040000    -0.8846262   -0.4452163     0.0012696   -0.0030576     0.0012823   -0.0030805    -0.8869327   -0.4360453 
   1.861420000    -0.8866888   -0.4409284     0.0012876   -0.0031381     0.0012943   -0.0031542    -0.8890777   -0.4317208 
   1.861800000    -0.8886437   -0.4364724     0.0013061   -0.0032190     0.0012973   -0.0032301    -0.8912438   -0.4271422 
   1.862180000    -0.8907215   -0.4319894     0.0013210   -0.0033056     0.0013179   -0.0033182    -0.8930146   -0.4223996 
   1.862560000    -0.8929498   -0.4273835     0.0013252   -0.0033913     0.0013349   -0.0033953    -0.8951436   -0.4178592 
   1.862940000    -0.8948599   -0.4226553     0.0013378   -0.0034749     0.0013351   -0.0034898    -0.8971788   -0.4132044 
   1.863320000    -0.8970359   -0.4180592     0.0013492   -0.0035611     0.0013533   -0.0035829    -0.8990149   -0.4085052 
   1.863700000    -0.8991848   -0.4134971     0.0013731   -0.0036649     0.0013645   -0.0036698    -0.9009897   -0.4036915 
   1.864080000    -0.9010327   -0.4086421     0.0013823   -0.0037595     0.0013804   -0.0037649    -0.9029910   -0.3988613 
   1.864460000    -0.9030945   -0.4041159     0.0013872   -0.0038574     0.0013888   -0.0038540    -0.9048918   -0.3940006 
   1.864840000    -0.9049519   -0.3991391     0.0014003   -0.0039654     0.0014067   -0.0039610    -0.9068681   -0.3888762 
   1.865220000    -0.9067913   -0.3940558     0.0014158   -0.0040705     0.0014060   -0.0040687    -0.9091028   -0.3840904 
   1.865600000    -0.9088068   -0.3891414     0.0014247   -0.0041751     0.0014155   -0.0041770    -0.9109263   -0.3789268 
   1.865980000    -0.9107333   -0.3840456     0.0014310   -0.0042881     0.0014228   -0.0042879    -0.9126101   -0.3738489 
   1.866360000    -0.9127888   -0.3789324     0.0014493   -0.0043998     0.0014361   -0.0044024    -0.9145620   -0.3688235 
   1.866740000    -0.9146433   -0.3736856     0.0014615   -0.0045217     0.0014407   -0.0045239    -0.9164434   -0.3639778 
   1.867120000    -0.9166321   -0.3683968     0.0014546   -0.0046371     0.0014496   -0.0046620    -0.9184797   -0.3586043 
   1.867500000    -0.9186464   -0.3631306     0.0014742   -0.0047665     0.0014482   -0.0047835    -0.9203670   -0.3529931 
   1.867880000    -0.9203539   -0.3578379     0.0014764   -0.0048952     0.0014705   -0.0049116    -0.9219569   -0.3476205 
   1.868260000    -0.9221721   -0.3523903     0.0014746   -0.0050295     0.0014690   -0.0050423    -0.9239219   -0.3421866 
   1.868640000    -0.9239836   -0.3470428     0.0014769   -0.0051693     0.0014791   -0.0051817    -0.9257225   -0.3368588 
   1.869020000    -0.9259111   -0.3416116     0.0014816   -0.0053072     0.0014762   -0.0053211    -0.9275414   -0.3311627 
   1.869400000    -0.9274141   -0.3360101     0.0014934   -0.0054652     0.0014774   -0.0054647    -0.9292473   -0.3254205 
   1.869780000    -0.9294211   -0.3301917     0.0014926   -0.0056156     0.0014830   -0.0056175    -0.9310783   -0.3197582 
   1.870160000    -0.9311295   -0.3245406     0.0015020   -0.0057698     0.0014830   -0.0057802    -0.9329217   -0.3139464 
   1.870540000    -0.9329471   -0.3191151     0.0014993   -0.0059324     0.0014837   -0.0059464    -0.9345097   -0.3081522 
   1.870920000    -0.9347085   -0.3131613     0.0014971   -0.0061008     0.0014899   -0.0061056    -0.9361462   -0.3022154 
   1.871300000    -0.9364842   -0.3073514     0.0014965   -0.0062728     0.0014903   -0.0062739    -0.9379030   -0.2962169 
   1.871680000    -0.9379696   -0.3012659     0.0014952   -0.0064350     0.0014866   -0.0064526    -0.9394568   -0.2900827 
   1.872060000    -0.9397636   -0.2950934     0.0014859   -0.0066246     0.0014835   -0.0066371    -0.9410005   -0.2840722 
   1.872440000    -0.9415302   -0.2889766     0.0014776   -0.0068142     0.0014623   -0.0068258    -0.9424853   -0.2777626 
   1.872820000    -0.9430244   -0.2828415     0.0014778   -0.0070053     0.0014414   -0.0070427    -0.9443238   -0.2714331 
   1.873200000    -0.9445594   -0.2766319     0.0014565   -0.0072166     0.0014361   -0.0072356    -0.9458488   -0.2649672 
   1.873580000    -0.9461188   -0.2703933     0.0014464   -0.0074241     0.0014233   -0.0074403    -0.9472613   -0.2587155 
   1.873960000    -0.9478856   -0.2641000     0.0014219   -0.0076309     0.0014057   -0.0076538    -0.9486883   -0.2522966 
   1.874340000    -0.9493566   -0.2576630     0.0014090   -0.0078521     0.0013851   -0.0078799    -0.9502680   -0.2456125 
   1.874720000    -0.9508918   -0.2511230     0.0013916   -0.0080873     0.0013528   -0.0081092    -0.9516909   -0.2387166 
   1.875100000    -0.9522979   -0.2443347     0.0013732   -0.0083204     0.0013429   -0.0083511    -0.9531103   -0.2319825 
   1.875480000    -0.9537448   -0.2377058     0.0013434   -0.0085638     0.0013174   -0.0085924    -0.9541730   -0.2251486 
   1.875860000    -0.9551820   -0.2308649     0.0013076   -0.0088225     0.0012904   -0.0088428    -0.9556782   -0.2182642 
   1.876240000    -0.9565814   -0.2239203     0.0012602   -0.0090240     0.0012467   -0.0091178    -0.9568456   -0.2112025 
   1.876620000    -0.9578040   -0.2173069     0.0012026   -0.0093294     0.0012173   -0.0093850    -0.9582057   -0.2042624 
   1.877000000    -0.9590387   -0.2100580     0.0012010   -0.0096130     0.0011475   -0.0096472    -0.9594830   -0.1966131 
   1.877380000    -0.9601996   -0.2030387     0.0011658   -0.0099254     0.0011220   -0.0099364    -0.9605089   -0.1895899 
   1.877760000    -0.9613292   -0.1958470     0.0010721   -0.0101669     0.0011162   -0.0102180    -0.9618946   -0.1821797 
   1.878140000    -0.9625953   -0.1885699     0.0010026   -0.0105550     0.0010971   -0.0105195    -0.9629230   -0.1747885 
   1.878520000    -0.9637678   -0.1813758     0.0009462   -0.0108258     0.0010335   -0.0108704    -0.9637074   -0.1672457 
   1.878900000    -0.9647493   -0.1737000     0.0008922   -0.0111601     0.0009390   -0.0111715    -0.9647267   -0.1593670 
   1.879280000    -0.9656872   -0.1662659     0.0008247   -0.0115090     0.0008616   -0.0115399    -0.9656847   -0.1515959 
   1.879660000    -0.9666221   -0.1584772     0.0007199   -0.0118757     0.0007119   -0.0118439    -0.9665097   -0.1437420 
   1.880040000    -0.9675004   -0.1506342     0.0006838   -0.0122262     0.0007056   -0.0122899    -0.9671573   -0.1355242 
   1.880420000    -0.9683619   -0.1430188     0.0005569   -0.0126343     0.0005822   -0.0125971    -0.9677981   -0.1275431 
   1.880800000    -0.9690243   -0.1352076     0.0004644   -0.0129765     0.0005099   -0.0130316    -0.9684610   -0.1191376 
   1.881180000    -0.9697146   -0.1270536     0.0004102   -0.0134288     0.0004364   -0.0133829    -0.9691005   -0.1109919 
   1.881560000    -0.9704570   -0.1187971     0.0002635   -0.0138092     0.0003073   -0.0138563    -0.9696404   -0.1023469 
   1.881940000    -0.9710842   -0.1106016     0.0001567   -0.0142929     0.0001515   -0.0142702    -0.9700482   -0.0939384 
   1.882320000    -0.9717424   -0.1022661     0.0000212   -0.0146939     0.0000388   -0.0146975    -0.9705476   -0.0851639 
   1.882700000    -0.9721214   -0.0937264    -0.0001789   -0.0151414    -0.0000536   -0.0151655    -0.9706125   -0.0761949 
   1.883080000    -0.9724805   -0.0852614    -0.0003210   -0.0155863    -0.0002623   -0.0156380    -0.9707662   -0.0672633 
   1.883460000    -0.9727983   -0.0768970    -0.0004221   -0.0161226    -0.0004311   -0.0161648    -0.9709235   -0.0583456 
   1.883840000    -0.9730374   -0.0680677    -0.0006704   -0.0166515    -0.0006802   -0.0167868    -0.9712765   -0.0490779 
   1.884220000    -0.9733737   -0.0591671    -0.0008797   -0.0172232    -0.0009386   -0.0172873    -0.9712512   -0.0398781 
   1.884600000    -0.9733729   -0.0501793    -0.0010864   -0.0177202    -0.0011349   -0.0179626    -0.9709275   -0.0301806 
   1.884980000    -0.9733346   -0.0411108    -0.0012394   -0.0183551    -0.0013377   -0.0184648    -0.9706945   -0.0208174 
   1.885360000    -0.9731694   -0.0318100    -0.0015453   -0.0188934    -0.0016192   -0.0190809    -0.9703291   -0.0110991 
   1.885740000    -0.9730357   -0.0224774    -0.0017542   -0.0195387    -0.0018128   -0.0196628    -0.9699941   -0.0012853 
   1.886120000    -0.9726912   -0.0131632    -0.0020505   -0.0201790    -0.0021045   -0.0202760    -0.9692601    0.0089519 
   1.886500000    -0.9722494   -0.0037005    -0.0023694   -0.0208500    -0.0024064   -0.0210296    -0.9686427    0.0188271 
   1.886880000    -0.9715677    0.0060121    -0.0025959   -0.0215174    -0.0027394   -0.0216948    -0.9679726    0.0289842 
   1.887260000    -0.9711094    0.0158168    -0.0029930   -0.0222473    -0.0031270   -0.0224002    -0.9669843    0.0394576 
   1.887640000    -0.9702501    0.0258332    -0.0033756   -0.0230369    -0.0034595   -0.0231400    -0.9659598    0.0501307 
   1.888020000    -0.9694073    0.0359137    -0.0037920   -0.0237452    -0.0038827   -0.0239000    -0.9645795    0.0607811 
   1.888400000    -0.9683358    0.0461512    -0.0041992   -0.0245216    -0.0043344   -0.0246677    -0.9632685    0.0714909 
   1.888780000    -0.9673741    0.0565611    -0.0046512   -0.0253398    -0.0046927   -0.0255129    -0.9617065    0.0826070 
   1.889160000    -0.9664275    0.0668885    -0.0050964   -0.0261607    -0.0051761   -0.0263515    -0.9601284    0.0936104 
   1.889540000    -0.9648597    0.0775412    -0.0056404   -0.0270638    -0.0057158   -0.0272179    -0.9582520    0.1048623 
   1.889920000    -0.9633270    0.0883202    -0.0061689   -0.0279677    -0.0062986   -0.0281896    -0.9563687    0.1164128 
   1.890300000    -0.9614989    0.0993699    -0.0067855   -0.0288822    -0.0067847   -0.0291276    -0.9538529    0.1278064 
   1.890680000    -0.9596366    0.1103127    -0.0073843   -0.0299161    -0.0074988   -0.0300620    -0.9514013    0.1396894 
   1.891060000    -0.9576532    0.1216242    -0.0080166   -0.0309063    -0.0081294   -0.0310412    -0.9487381    0.1516577 
   1.891440000    -0.9555466    0.1329481    -0.0088397   -0.0318810    -0.0088735   -0.0321745    -0.9459993    0.1637184 
   1.891820000    -0.9530195    0.1443388    -0.0095961   -0.0329478    -0.0096748   -0.0332625    -0.9428369    0.1761802 
   1.892200000    -0.9503371    0.1560498    -0.0104368   -0.0341456    -0.0104930   -0.0343325    -0.9395022    0.1885622 
   1.892580000    -0.9475998    0.1677345    -0.0113420   -0.0353148    -0.0114315   -0.0355183    -0.9361984    0.2010925 
   1.892960000    -0.9447555    0.1797352    -0.0122489   -0.0364742    -0.0123769   -0.0366525    -0.9323126    0.2139786 
   1.893340000    -0.9415786    0.1918906    -0.0133556   -0.0378034    -0.0134181   -0.0379363    -0.9283873    0.2269242 
   1.893720000    -0.9381266    0.2039984    -0.0145119   -0.0390538    -0.0146141   -0.0392955    -0.9239968    0.2400528 
   1.894100000    -0.9345082    0.2165604    -0.0156535   -0.0405367    -0.0159144   -0.0406346    -0.9193817    0.2535045 
   1.894480000    -0.9308143    0.2289209    -0.0169061   -0.0418237    -0.0171419   -0.0419671    -0.9145073    0.2667781 
   1.894860000    -0.9264815    0.2417358    -0.0182886   -0.0432639    -0.0185282   -0.0433384    -0.9093941    0.2806048 
   1.895240000    -0.9220212    0.2545382    -0.0197184   -0.0446955    -0.0199854   -0.0448101    -0.9036380    0.2944901 
   1.895620000    -0.9172261    0.2675487    -0.0213415   -0.0461808    -0.0215639   -0.0462922    -0.8977860    0.3084264 
   1.896000000    -0.9123626    0.2807295    -0.0229959   -0.0477479    -0.0232708   -0.0478983    -0.8914255    0.3229032 
   1.896380000    -0.9069526    0.2940935    -0.0248467   -0.0492929    -0.0250112   -0.0494324    -0.8846106    0.3373304 
   1.896760000    -0.9016661    0.3075997    -0.0267927   -0.0509939    -0.0269750   -0.0511164    -0.8773738    0.3519337 
   1.897140000    -0.8955828    0.3210153    -0.0288750   -0.0526701    -0.0291122   -0.0528074    -0.8698453    0.3667282 
   1.897520000    -0.8890254    0.3347879    -0.0311325   -0.0543624    -0.0313846   -0.0545458    -0.8615634    0.3816075 
   1.897900000    -0.8824666    0.3486796    -0.0335158   -0.0560936    -0.0338335   -0.0562908    -0.8529739    0.3967567 
   1.898280000    -0.8754863    0.3627218    -0.0361472   -0.0579191    -0.0363482   -0.0581170    -0.8439401    0.4120430 
   1.898660000    -0.8681567    0.3770207    -0.0389690   -0.0597610    -0.0391779   -0.0598669    -0.8344390    0.4273149 
   1.899040000    -0.8602251    0.3913678    -0.0419142   -0.0616675    -0.0422142   -0.0617227    -0.8245445    0.4427197 
   1.899420000    -0.8518599    0.4057460    -0.0451885   -0.0634749    -0.0453954   -0.0636065    -0.8133492    0.4585408 
