! Touchstone file exported from HFSS 2023.1.0
!        File:           E:/1.Project/CoxailF/seventhree.aedt
!        Generated:      8:53:49 %x4E0B%x5348  5%x6708 24, 2023
!        Design:         Resonator_out5
!        Project:        seventhree
!        Setup:          Setup1
!        Solution:       Sweep
!
! Variables:
!        Hin1 = 26mm
!        Hout = 29mm
!        L12 = 15mm
!        L13 = 14.5mm
!        L23 = 6.9mm
!        L34 = 12.5mm
!        L45 = 7.7mm
!        L46 = 2mm
!        L56 = 8mm
!        L67 = 12.5mm
!        L78 = 9.2mm
!        L79 = 9.6mm
!        L89 = 16mm
!        Rin = 5mm
!        Rin2 = 4mm
!        Rout = 15mm
!        Rport = 1.15mm
!        Rport2 = 3mm
!        Rportin = 0.5mm
!        d = 3mm
!        d01 = 2.87mm
!        d02 = 3.47mm
!        d03 = 3.64mm
!        d04 = 3.7mm
!        d05 = 3.7mm
!        d06 = 3.69mm
!        d07 = 3.65mm
!        d08 = 3.54mm
!        d09 = 2.89mm
!        d12 = 18mm
!        d12x = 15.5mm
!        d12y = 25mm
!        d23 = 18mm
!        d34 = 30mm
!        hport = 10.4mm
!        hport2 = 10.4mm
!        lport = 12mm
!        lport2 = 1mm
!        lport_2 = 12mm
!        m = 2mm
!        w12 = 12mm
!        w13 = 10mm
!        w34 = 12mm
!
# GHz S MA R 50.000000
! Terminal data exported
! Port[1] = 1
! Port[2] = 2
1.8                            0.998512280705795 -89.7984597016179 1.24063552334391E-06 179.388742017189 1.24063552334391E-06 179.388742017189 0.998511824886463 -89.8285288216131 
! Gamma         0.0540732695286148 37.7798358605328 0.0537783412881189 37.779469028817  
! Port Impedance         50               0                50               0                
1.8004                         0.998506986741466 -89.8852502482753 1.26416210913119E-06 179.299975557652 1.26416210916456E-06 179.299975559063 0.998506483966313 -89.9155916558362 
! Gamma         0.0540793379595017 37.7882253184942 0.0537843691500544 37.7878584442508 
! Port Impedance         50               0                50               0                
1.8008                         0.99850165325233 -89.9724092565524 1.28820333717913E-06 179.210828142819 1.2882033371609E-06 179.210828146914 0.9985011028696  -90.003026534724 
! Gamma         0.0540854057174614 37.7966147757797 0.05379039634336 37.7962478590136 
! Port Impedance         50               0                50               0                
1.8012                         0.998496279806733 -90.0599397844783 1.31277198718566E-06 179.121296592556 1.31277198721121E-06 179.121296594459 0.998495681152958 -90.0908365719782 
! Gamma         0.0540914728027182 37.8050042323896 0.0537964228682581 37.8046372731057 
! Port Impedance         50               0                50               0                
1.8016                         0.998490865966943 -90.1478449249246 1.33788119459638E-06 179.03137768733  1.33788119460955E-06 179.031377689195 0.998490218366699 -90.179024917169 
! Gamma         0.0540975392154965 37.8133936883241 0.0538024487249708 37.8130266865273 
! Port Impedance         50               0                50               0                
1.802                          0.998485411289049 -90.2361278061098 1.36354446128467E-06 178.941068177757 1.3635444613374E-06 178.941068177799 0.998484714054696 -90.2675947562622 
! Gamma         0.0541036049560202 37.8217831435835 0.0538084739137201 37.8214160992786 
! Port Impedance         50               0                50               0                
1.8024                         0.998479915322848 -90.3247915921125 1.38977566727513E-06 178.850364767335 1.38977566727215E-06 178.850364767076 0.998479167754274 -90.3565493121543 
! Gamma         0.0541096700245134 37.830172598168  0.0538144984347279 37.8298055113598 
! Port Impedance         50               0                50               0                
1.8028                         0.998474377611742 -90.4138394833937 1.41658908213256E-06 178.759264126091 1.4165890821472E-06 178.759264127871 0.998473578996095 -90.445891845218 
! Gamma         0.0541157344211999 37.8385620520778 0.053820522288216 37.8381949227712 
! Port Impedance         50               0                50               0                
1.8032                         0.998468797692623 -90.5032747173282 1.4439993772906E-06 178.667762886827 1.44399937730379E-06 178.667762888329 0.998467947304036 -90.5356256538575 
! Gamma         0.0541217981463035 37.8469515053131 0.053826545474406 37.846584333513  
! Port Impedance         50               0                50               0                
1.8036                         0.99846317509576 -90.5931005687454 1.47202163853277E-06 178.57585764305  1.47202163857823E-06 178.575857643094 0.998462272195073 -90.6257540750738 
! Gamma         0.0541278612000478 37.8553409578741 0.0538325679935196 37.8549737435853 
! Port Impedance         50               0                50               0                
1.804                          0.998457509344683 -90.6833203504804 1.50067137900717E-06 178.483544945951 1.50067137900616E-06 178.483544947391 0.998456553179157 -90.7162804850395 
! Gamma         0.0541339235826562 37.8637304097611 0.053838589845778 37.8633631529885 
! Port Impedance         50               0                50               0                
1.8044                         0.998451799956067 -90.773937413934 1.52996455260183E-06 178.39082130742  1.52996455260183E-06 178.39082130742  0.998450789759084 -90.8072082996857 
! Gamma         0.0541399852943521 37.8721198609743 0.0538446110314027 37.8717525617228 
! Port Impedance         50               0                50               0                
1.8048                         0.998446046439605 -90.8649551496435 1.55991756782245E-06 178.297683199628 1.55991756781126E-06 178.297683201707 0.998444981430376 -90.898540975298 
! Gamma         0.0541460463353586 37.8805093115139 0.0538506315506148 37.8801419697882 
! Port Impedance         50               0                50               0                
1.8052                         0.998440248297893 -90.9563769878637 1.59054730223837E-06 178.204127052017 1.59054730230574E-06 178.204127051179 0.998439127681141 -90.9902820091245 
! Gamma         0.054152106705899 37.8888987613802 0.0538566514036353 37.8885313771852 
! Port Impedance         50               0                50               0                
1.8056                         0.998434405026295 -91.0482063991576 1.62187111742548E-06 178.110149249488 1.62187111741817E-06 178.110149248805 0.998433227991943 -91.0824349399939 
! Gamma         0.054158166406196 37.8972882105733 0.0538626705906853 37.8969207839139 
! Port Impedance         50               0                50               0                
1.806                          0.998428516112824 -91.1404468949992 1.65390687399739E-06 178.015746136626 1.65390687402156E-06 178.015746137982 0.998427281835669 -91.1750033489464 
! Gamma         0.0541642254364725 37.9056776590935 0.0538686891119854 37.9053101899746 
! Port Impedance         50               0                50               0                
1.8064                         0.998422581038   -91.233102028386 1.6866729479606E-06 177.920914015991 1.68667294795967E-06 177.92091401686  0.998421288677379 -91.2679908598753 
! Gamma         0.0541702837969514 37.9140671069411 0.0538747069677565 37.9136995953673 
! Port Impedance         50               0                50               0                
1.8068                         0.998416599274725 -91.3261753944634 1.72018824692132E-06 177.8256491427   1.72018824694524E-06 177.825649144227 0.998415247974178 -91.3614011401803 
! Gamma         0.054176341487855 37.9224565541161 0.053880724158219 37.9220890000925 
! Port Impedance         50               0                50               0                
1.8072                         0.998410570288141 -91.4196706311603 1.75447222732006E-06 177.729947729176 1.75447222731209E-06 177.729947730427 0.998409159175058 -91.4552379014341 
! Gamma         0.0541823985094059 37.930846000619  0.0538867406835934 37.9304784041503 
! Port Impedance         50               0                50               0                
1.8076                         0.998404493535491 -91.5135914198363 1.78954491189566E-06 177.633805941849 1.78954491191392E-06 177.63380594146  0.998403021720756 -91.5495049000606 
! Gamma         0.0541884548618263 37.9392354464498 0.0538927565441001 37.9388678075409 
! Port Impedance         50               0                50               0                
1.808                          0.998398368465976 -91.6079414859412 1.82542690819915E-06 177.537219898785 1.82542690823989E-06 177.537219897417 0.998396835043595 -91.6442059380254 
! Gamma         0.0541945105453385 37.9476248916088 0.0538987717399593 37.9472572102645 
! Port Impedance         50               0                50               0                
1.8084                         0.998392194520611 -91.7027245996862 1.86213942745441E-06 177.440185670503 1.86213942748166E-06 177.440185670741 0.998390598567341 -91.7393448635409 
! Gamma         0.0542005655601645 37.9560143360963 0.0539047862713911 37.9556466123214 
! Port Impedance         50               0                50               0                
1.8088                         0.998385971132072 -91.7979445767278 1.89970430395567E-06 177.342699287906 1.89970430401608E-06 177.342699287794 0.99838431170703 -91.8349255717831 
! Gamma         0.0542066199065262 37.9644037799124 0.0539108001386154 37.9640360137117 
! Port Impedance         50               0                50               0                
1.8092                         0.998379697724547 -91.8936052788648 1.93814401582831E-06 177.244756723593 1.93814401585832E-06 177.244756724215 0.998377973868815 -91.9309520056228 
! Gamma         0.0542126735846455 37.9727932230574 0.0539168133418521 37.9724254144358 
! Port Impedance         50               0                50               0                
1.8096                         0.998373373713578 -91.9897106147473 1.97748170564479E-06 177.146353906183 1.97748170566701E-06 177.146353906594 0.998371584449797 -92.0274281563704 
! Gamma         0.0542187265947441 37.9811826655315 0.053922825881321 37.9808148144938 
! Port Impedance         50               0                50               0                
1.81                           0.998366998505903 -92.0862645406002 2.01774120249113E-06 177.04748671364  2.0177412024452E-06 177.047486714506 0.998365142837855 -92.1243580645354 
! Gamma         0.0542247789370433 37.9895721073349 0.0539288377572416 37.989204213886  
! Port Impedance         50               0                50               0                
1.8104                         0.998360571499293 -92.1832710609596 2.05894704433354E-06 176.948150971133 2.05894704434504E-06 176.948150971151 0.998358648411474 -92.2217458205996 
! Gamma         0.0542308306117648 37.9979615484678 0.0539348489698335 37.9975936126125 
! Port Impedance         50               0                50               0                
1.8108                         0.998354092082388 -92.2807342294233 2.10112450176901E-06 176.84834245639  2.10112450176847E-06 176.848342457471 0.998352100539566 -92.3195955658062 
! Gamma         0.0542368816191298 38.0063509889306 0.053940859519316 38.0059830106736 
! Port Impedance         50               0                50               0                
1.8112                         0.998347559634524 -92.3786581494152 2.14429960189306E-06 176.748056890103 2.14429960190387E-06 176.748056890474 0.998345498581291 -92.4179114929632 
! Gamma         0.0542429319593595 38.0147404287233 0.0539468694059084 38.0143724080695 
! Port Impedance         50               0                50               0                
1.8116                         0.998340973525558 -92.4770469749649 2.18849915370277E-06 176.647289941257 2.18849915367821E-06 176.647289943308 0.998338841885868 -92.5166978472629 
! Gamma         0.0542489816326749 38.0231298678462 0.0539528786298298 38.0227618048005 
! Port Impedance         50               0                50               0                
1.812                          0.998334333115698 -92.5759049115016 2.23375077391994E-06 176.546037228572 2.23375077390131E-06 176.546037229398 0.99833212979239 -92.615958927117 
! Gamma         0.0542550306392969 38.0315193062996 0.0539588871912992 38.0311512008667 
! Port Impedance         50               0                50               0                
1.8124                         0.998327637755313 -92.6752362166631 2.28008291426651E-06 176.444294312283 2.28008291427318E-06 176.444294312966 0.998325361629628 -92.7156990850085 
! Gamma         0.0542610789794463 38.0399087440836 0.0539648950905356 38.0395405962684 
! Port Impedance         50               0                50               0                
1.8128                         0.998320886784754 -92.7750452011212 2.32752488937807E-06 176.342056694329 2.32752488939019E-06 176.342056694183 0.998318536715829 -92.8159227283596 
! Gamma         0.0542671266533439 38.0482981811984 0.0539709023277577 38.0479299910057 
! Port Impedance         50               0                50               0                
1.8132                         0.998314079534159 -92.8753362294216 2.37610690561448E-06 176.239319827021 2.37610690562533E-06 176.239319827363 0.998311654358522 -92.9166343204169 
! Gamma         0.05427317366121 38.0566876176444 0.0539769089031842 38.056319385079  
! Port Impedance         50               0                50               0                
1.8136                         0.998307215323267 -92.9761137208417 2.42586009154421E-06 176.13607909772  2.42586009157417E-06 176.136079099044 0.998304713854302 -93.0178383811545 
! Gamma         0.0542792200032652 38.0650770534217 0.0539829148170336 38.0647087784884 
! Port Impedance         50               0                50               0                
1.814                          0.998300293461209 -93.0773821502634 2.47681652888375E-06 176.03232984145  2.47681652887334E-06 176.032329843783 0.99829771448862 -93.1195394881943 
! Gamma         0.0542852656797298 38.0734664885306 0.0539889200695243 38.0730981712341 
! Port Impedance         50               0                50               0                
1.8144                         0.998293313246316 -93.1791460490642 2.52900928503274E-06 175.928067332313 2.52900928506558E-06 175.928067331597 0.99829065553557 -93.2217422777446 
! Gamma         0.0542913106908238 38.0818559229712 0.0539949246608747 38.0814875633164 
! Port Impedance         50               0                50               0                
1.8148                         0.998286273965903 -93.2814100060249 2.58247244664235E-06 175.823286779405 2.58247244664086E-06 175.823286779856 0.998283536257662 -93.324451445558 
! Gamma         0.0542973550367674 38.0902453567438 0.054000928591303 38.0898769547355 
! Port Impedance         50               0                50               0                
1.8152                         0.998279174896063 -93.3841786682557 2.63724115445501E-06 175.717983335643 2.63724115445517E-06 175.717983336089 0.998276355905597 -93.4276717479082 
! Gamma         0.0543033987177805 38.0986347898485 0.0540069318610271 38.0982663454916 
! Port Impedance         50               0                50               0                
1.8156                         0.998272015301447 -93.48745674214  2.69335163954069E-06 175.612152090543 2.69335163953715E-06 175.612152091996 0.998269113718032 -93.5314080025859 
! Gamma         0.0543094417340827 38.1070242222858 0.0540129344702651 38.106655735585  
! Port Impedance         50               0                50               0                
1.816                          0.998264794435045 -93.5912489942969 2.75084126073265E-06 175.505788069865 2.7508412607323E-06 175.505788070868 0.998261808921344 -93.6356650899153 
! Gamma         0.0543154840858939 38.1154136540556 0.0540189364192348 38.1150451250157 
! Port Impedance         50               0                50               0                
1.8164                         0.998257511537955 -93.6955602525631 2.80974854374638E-06 175.398886234505 2.80974854380523E-06 175.398886234461 0.998254440729387 -93.7404479537911 
! Gamma         0.0543215257734336 38.1238030851583 0.0540249377081538 38.1234345137842 
! Port Impedance         50               0                50               0                
1.8168                         0.998250165839153 -93.8003954069945 2.8701132214983E-06 175.291441478624 2.8701132215069E-06 175.291441478638 0.998247008343239 -93.8457616027364 
! Gamma         0.054327566796921 38.1321925155941 0.0540309383372398 38.1318239018905 
! Port Impedance         50               0                50               0                
1.8172                         0.998242756555255 -93.9057594108868 2.93197627609566E-06 175.183448632366 2.93197627613019E-06 175.183448631609 0.998239510950949 -93.9516111109824 
! Gamma         0.0543336071565756 38.1405819453633 0.0540369383067104 38.1402132893349 
! Port Impedance         50               0                50               0                
1.8176                         0.998235282890277 -94.011657281818 2.99537998249656E-06 175.074902456733 2.99537998248273E-06 175.07490245671  0.998231947727276 -94.0580016195695 
! Gamma         0.0543396468526166 38.1489713744659 0.0540429376167827 38.1486026761177 
! Port Impedance         50               0                50               0                
1.818                          0.998227744035378 -94.11809410271  3.06036795375041E-06 174.965797644849 3.06036795373195E-06 174.965797644687 0.99822431783342 -94.164938337472 
! Gamma         0.0543456858852628 38.1573608029023 0.0540489362676741 38.1569920622389 
! Port Impedance         50               0                50               0                
1.8184                         0.998220139168615 -94.225075022914 3.12698518799818E-06 174.856128818484 3.12698518797557E-06 174.856128818447 0.998216620416745 -94.2724265427452 
! Gamma         0.0543517242547333 38.1657502306726 0.0540549342596016 38.165381447699  
! Port Impedance         50               0                50               0                
1.8188                         0.998212467454674 -94.3326052593156 3.19527811724032E-06 174.745890529443 3.19527811723691E-06 174.745890530447 0.998208854610505 -94.3804715836966 
! Gamma         0.0543577619612469 38.1741396577772 0.0540609315927824 38.173770832498  
! Port Impedance         50               0                50               0                
1.8192                         0.998204728044612 -94.4406900974638 3.26529465826473E-06 174.635077256377 3.26529465827719E-06 174.635077257017 0.998201019533549 -94.489078880081 
! Gamma         0.0543637990050222 38.1825290842161 0.0540669282674332 38.1821602166362 
! Port Impedance         50               0                50               0                
1.8196                         0.998196920075573 -94.5493348927226 3.33708426503976E-06 174.523683406429 3.33708426503369E-06 174.523683407514 0.998193114290031 -94.5982539243215 
! Gamma         0.0543698353862777 38.1909185099897 0.0540729242837708 38.1905496001138 
! Port Impedance         50               0                50               0                
1.82                           0.998189042670517 -94.6585450714459 3.41069798377079E-06 174.411703306817 3.41069798381309E-06 174.411703307483 0.998185137969105 -94.7080022827542 
! Gamma         0.0543758711052319 38.1993079350981 0.0540789196420119 38.198938982931  
! Port Impedance         50               0                50               0                
