! Touchstone file exported from HFSS 2023.1.0
!        File:           E:/3.%x6211%x7684%x8BBA%x6587/%x65B0%x6D4B%x8BD5/CoaxialF93.aedt
!        Generated:      9:33:43 %x4E0B%x5348  5%x6708 26, 2023
!        Design:         S5
!        Project:        CoaxialF93
!        Setup:          Setup1
!        Solution:       Sweep
!
! Variables:
!        Hin1 = 26mm
!        Hout = 29mm
!        L12 = 14.8mm
!        L13 = 14.75mm
!        L23 = 6.95mm
!        L34 = 12.5mm
!        L45 = 8.3mm
!        L46 = 3.7mm
!        L56 = 8.2mm
!        L67 = 12.5mm
!        L78 = 8.3mm
!        L79 = 11.5mm
!        L89 = 15.3mm
!        Rin = 5mm
!        Rin2 = 4mm
!        Rout = 15mm
!        Rport = 1.15mm
!        Rport2 = 3mm
!        Rportin = 0.5mm
!        d = 3mm
!        d01 = 2.9mm
!        d02 = 3.53mm
!        d03 = 3.66mm
!        d04 = 3.74mm
!        d05 = 3.745mm
!        d06 = 3.74mm
!        d07 = 3.672mm
!        d08 = 3.52mm
!        d09 = 2.92mm
!        d12 = 18mm
!        d12x = 15.5mm
!        d12y = 25mm
!        d23 = 18mm
!        d34 = 30mm
!        hport = 10.4mm
!        hport2 = 10.4mm
!        lport = 12mm
!        lport2 = 1mm
!        lport_2 = 12mm
!        m = 2mm
!        w12 = 12mm
!        w13 = 10mm
!        w34 = 12mm
!        w46 = 8.5mm
!
# GHz S MA R 50.000000
! Terminal data exported
! Port[1] = 1
! Port[2] = 2
1.8                            0.998489819798527 -90.0664094794584 1.1321042272748E-06 179.082973183052 1.1321042272748E-06 179.082973183052 0.998492742036377 -90.1444985376308 
! Gamma         0.0540794396998871 37.7798448051341 0.0540300562616879 37.7798007029303 
! Port Impedance         50               0                50               0                
1.8004                         0.998484343487203 -90.154752643542 1.15389655549898E-06 178.992760910016 1.15389655550747E-06 178.992760912006 0.998487285741475 -90.2328200824282 
! Gamma         0.0540855091110804 37.7882342641846 0.0540361207577636 37.7881901572488 
! Port Impedance         50               0                50               0                
1.8008                         0.99847882554856 -90.2434783115851 1.17617236630983E-06 178.902155508862 1.17617236629776E-06 178.902155508251 0.99848178810556 -90.321523313985 
! Gamma         0.0540915778492721 37.7966237225592 0.0540421845813501 37.7965796108916 
! Port Impedance         50               0                50               0                
1.8012                         0.998473265519994 -90.3325897105234 1.19894382848772E-06 178.811153656419 1.1989438284973E-06 178.811153655691 0.998476248671039 -90.4106114434666 
! Gamma         0.0540976459146864 37.8050131802581 0.0540482477326755 37.8049690638589 
! Port Impedance         50               0                50               0                
1.8016                         0.998467662932271 -90.4220901046905 1.22222345369174E-06 178.719751996662 1.22222345375681E-06 178.719751996586 0.998470666973792 -90.5000877191117 
! Gamma         0.0541037133075471 37.8134026372815 0.0540543102119676 37.813358516151  
! Port Impedance         50               0                50               0                
1.802                          0.998462017309405 -90.5119827963696 1.24602410738125E-06 178.627947135652 1.2460241074312E-06 178.627947135136 0.998465042543056 -90.5899554267766 
! Gamma         0.054109780028078 37.8217920936296 0.0540603720194539 37.821747967768  
! Port Impedance         50               0                50               0                
1.8024                         0.998456328168545 -90.602271126354 1.27035901984616E-06 178.535735643002 1.27035901985295E-06 178.535735642027 0.998459374901312 -90.6802178904883 
! Gamma         0.0541158460765027 37.8301815493027 0.0540664331553616 37.8301374187102 
! Port Impedance         50               0                50               0                
1.8028                         0.998450595019851 -90.6929584745187 1.29524179770429E-06 178.443114037978 1.29524179770784E-06 178.443114037292 0.998453663564158 -90.7708784730081 
! Gamma         0.0541219114530447 37.838571004301  0.0540724936199174 37.8385268689779 
! Port Impedance         50               0                50               0                
1.8032                         0.99844481736637 -90.7840482604016 1.32068643569239E-06 178.350078807767 1.32068643568853E-06 178.350078808849 0.998447908040197 -90.8619405764048 
! Gamma         0.0541279761579274 37.8469604586246 0.0540785534133481 37.8469163185712 
! Port Impedance         50               0                50               0                
1.8036                         0.998438994703907 -90.8755439437957 1.34670732909605E-06 178.256626396306 1.34670732906261E-06 178.256626394793 0.998442107830909 -90.9534076426393 
! Gamma         0.0541340401913741 37.8553499122739 0.0540846125358798 37.8553057674904 
! Port Impedance         50               0                50               0                
1.804                          0.998433126520901 -90.9674490253517 1.37331928624266E-06 178.16275320181  1.37331928619771E-06 178.162753202932 0.998436262430523 -91.0452831541581 
! Gamma         0.0541401035536079 37.8637393652491 0.0540906709877385 37.8636952157358 
! Port Impedance         50               0                50               0                
1.8044                         0.99842721229829 -91.059767047192 1.40053754181533E-06 178.068455585823 1.40053754177662E-06 178.068455586802 0.998430371325889 -91.1375706344991 
! Gamma         0.0541461662448518 37.8721288175503 0.0540967287691499 37.8720846633075 
! Port Impedance         50               0                50               0                
1.8048                         0.998421251509374 -91.1525015935359 1.42837777037482E-06 177.973729864466 1.42837777040678E-06 177.97372986413  0.998424433996349 -91.2302736489078 
! Gamma         0.0541522282653286 37.8805182691778 0.0541027858803394 37.8804741102057 
! Port Impedance         50               0                50               0                
1.8052                         0.99841524361968 -91.2456562913356 1.45685610050657E-06 177.87857230683  1.45685610051279E-06 177.878572306964 0.998418449913597 -91.3233958049645 
! Gamma         0.0541582896152613 37.8889077201319 0.0541088423215322 37.8888635564309 
! Port Impedance         50               0                50               0                
1.8056                         0.998409188086822 -91.3392348109251 1.48598912931727E-06 177.78297914052  1.48598912925318E-06 177.782979140915 0.998412418541547 -91.4169407532238 
! Gamma         0.0541643502948722 37.8972971704127 0.0541148980929531 37.897253001983  
! Port Impedance         50               0                50               0                
1.806                          0.998403084360356 -91.43324086668  1.51579393745737E-06 177.686946547851 1.51579393746426E-06 177.686946547378 0.998406339336187 -91.5109121878648 
! Gamma         0.0541704103043841 37.9056866200205 0.0541209531948267 37.9056424468625 
! Port Impedance         50               0                50               0                
1.8064                         0.99839693188163 -91.5276782176902 1.5462881050084E-06 177.590470664444 1.54628810499255E-06 177.590470664301 0.998400211745438 -91.6053138473543 
! Gamma         0.0541764696440192 37.9140760689555 0.0541270076273775 37.9140318910694 
! Port Impedance         50               0                50               0                
1.8068                         0.998390730083641 -91.6225506684452 1.57748972743219E-06 177.493547578887 1.57748972744124E-06 177.493547579368 0.998394035209011 -91.7001495151216 
! Gamma         0.0541825283139999 37.9224655172179 0.0541330613908295 37.9224213346041 
! Port Impedance         50               0                50               0                
1.8072                         0.998384478390874 -91.7178620695314 1.60941743245046E-06 177.396173333925 1.60941743245689E-06 177.396173333936 0.99838780915825 -91.795423020246 
! Gamma         0.0541885863145482 37.930854964808  0.0541391144854065 37.9308107774667 
! Port Impedance         50               0                50               0                
1.8076                         0.998378176219154 -91.8136163183435 1.6420903972775E-06 177.298343921513 1.642090397192E-06 177.298343922611 0.998381533015986 -91.8911382381578 
! Gamma         0.0541946436458862 37.9392444117259 0.0541451669113322 37.9392002196576 
! Port Impedance         50               0                50               0                
1.808                          0.998371822975477 -91.9098173598087 1.67552836665327E-06 177.200055288914 1.67552836664829E-06 177.200055290124 0.998375206196374 -91.9872990913506 
! Gamma         0.0542007003082357 37.9476338579719 0.05415121866883 37.9475896611769 
! Port Impedance         50               0                50               0                
1.8084                         0.998365418057851 -92.0064691871244 1.70975167156715E-06 177.101303329484 1.70975167152512E-06 177.101303331482 0.99836882810474 -92.0839095501095 
! Gamma         0.0542067563018185 37.9560233035462 0.054157269758123 37.9559791020248 
! Port Impedance         50               0                50               0                
1.8088                         0.998358960855131 -92.1035758425105 1.7447812483548E-06 177.002083892242 1.74478124832384E-06 177.002083891226 0.998362398137411 -92.1809736332509 
! Gamma         0.0542128116268563 37.9644127484491 0.0541633201794341 37.9643685422016 
! Port Impedance         50               0                50               0                
1.8092                         0.998352450746843 -92.2011414179758 1.78063865889461E-06 176.90239276501  1.78063865892305E-06 176.902392765585 0.998355915681555 -92.2784954088769 
! Gamma         0.0542188662835705 37.9728021926807 0.054169369932986 37.9727579817076 
! Port Impedance         50               0                50               0                
1.8096                         0.998345887103011 -92.2991700560983 1.81734611130907E-06 176.802225692872 1.81734611126966E-06 176.802225692906 0.998349380115004 -92.376478995145 
! Gamma         0.0542249202721825 37.9811916362413 0.0541754190190012 37.9811474205428 
! Port Impedance         50               0                50               0                
1.81                           0.998339269283984 -92.3976659508213 1.85492648100052E-06 176.701578365982 1.85492648100127E-06 176.701578365577 0.998342790806085 -92.4749285610504 
! Gamma         0.0542309735929137 37.9895810791312 0.054181467437702 37.9895368587077 
! Port Impedance         50               0                50               0                
1.8104                         0.998332596640244 -92.4966333482647 1.89340333382054E-06 176.600446418241 1.89340333372616E-06 176.600446419269 0.998336147113437 -92.5738483272256 
! Gamma         0.0542370262459851 37.9979705213504 0.0541875151893104 37.9979262962023 
! Port Impedance         50               0                50               0                
1.8108                         0.998325868512227 -92.5960765475516 1.9328009481136E-06 176.498825433013 1.93280094799268E-06 176.498825432303 0.998329448385836 -92.6732425667534 
! Gamma         0.0542430782316177 38.0063599628993 0.0541935622740482 38.006315733027  
! Port Impedance         50               0                50               0                
1.8112                         0.998319084230127 -92.6959999016507 1.97314433924457E-06 176.396710933383 1.97314433915718E-06 176.396710933897 0.998322693961998 -92.7731156059964 
! Gamma         0.0542491295500326 38.0147494037781 0.0541996086921371 38.0147051691819 
! Port Impedance         50               0                50               0                
1.8116                         0.998312243113706 -92.796407818236 2.01445928442346E-06 176.294098388657 2.01445928436647E-06 176.294098388836 0.9983158831704  -92.8734718254426 
! Gamma         0.0542551802014503 38.023138843987  0.0542056544437986 38.0230946046673 
! Port Impedance         50               0                50               0                
1.812                          0.99830534447209 -92.8973047605619 2.05677234813562E-06 176.190983216178 2.05677234808421E-06 176.190983216734 0.998309015329078 -92.9743156605666 
! Gamma         0.0542612301860916 38.0315282835261 0.0542116995292538 38.0314840394833 
! Port Impedance         50               0                50               0                
1.8124                         0.998298387603567 -92.9986952483568 2.10011090907124E-06 176.087360767374 2.10011090902216E-06 176.087360766917 0.998302089745431 -93.0756516027088 
! Gamma         0.054267279504177 38.0399177223959 0.0542177439487238 38.0398734736303 
! Port Impedance         50               0                50               0                
1.8128                         0.998291371795378 -93.1005838587329 2.14450318751386E-06 175.983226337275 2.14450318752675E-06 175.983226337478 0.998295105716015 -93.1774841999705 
! Gamma         0.0542733281559268 38.0483071605963 0.0542237877024295 38.0482629071085 
! Port Impedance         50               0                50               0                
1.8132                         0.998284296323501 -93.2029752271152 2.18997827446237E-06 175.878575163524 2.18997827441879E-06 175.878575163442 0.998288062526337 -93.2798180581269 
! Gamma         0.0542793761415615 38.0566965981278 0.0542298307905916 38.0566523399181 
! Port Impedance         50               0                50               0                
1.8136                         0.998277160452439 -93.3058740481877 2.23656616082029E-06 175.773402420167 2.23656616076813E-06 175.773402420674 0.998280959450645 -93.3826578415586 
! Gamma         0.054285423461301 38.0650860349905 0.0542358732134305 38.0650417720592 
! Port Impedance         50               0                50               0                
1.814                          0.99826996343499 -93.409285076859 2.28429776896345E-06 175.667703221864 2.28429776894011E-06 175.667703221734 0.9982737957517  -93.4860082742003 
! Gamma         0.0542914701153655 38.0734754711846 0.0542419149711666 38.0734312035322 
! Port Impedance         50               0                50               0                
1.8144                         0.998262704512019 -93.5132131292472 2.3332049844173E-06 175.561472617953 2.3332049843065E-06 175.561472618576 0.998266570680566 -93.5898741405096 
! Gamma         0.0542975161039749 38.0818649067103 0.05424795606402 38.0818206343372 
! Port Impedance         50               0                50               0                
1.8148                         0.998255382912231 -93.617663083684 2.38332068891949E-06 175.454705595423 2.38332068894253E-06 175.454705594647 0.998259283476371 -93.6942602864539 
! Gamma         0.0543035614273489 38.0902543415679 0.0542539964922107 38.0902100644745 
! Port Impedance         50               0                50               0                
1.8152                         0.99824799785192 -93.7226398817392 2.43467879570841E-06 175.347397073954 2.43467879570397E-06 175.347397075234 0.998251933366081 -93.7991716205176 
! Gamma         0.0543096060857072 38.0986437757576 0.0542600362559584 38.0985994939444 
! Port Impedance         50               0                50               0                
1.8156                         0.998240548534734 -93.8281485292661 2.4873142845745E-06 175.239541912245 2.48731428453927E-06 175.239541912494 0.99824451956426 -93.9046131147291 
! Gamma         0.0543156500792693 38.1070332092796 0.0542660753554828 38.1069889227469 
! Port Impedance         50               0                50               0                
1.816                          0.998233034151421 -93.9341940974672 2.54126323961949E-06 175.131134897576 2.54126323955453E-06 175.131134897451 0.998237041272821 -94.0105898057087 
! Gamma         0.0543216934082547 38.1154226421342 0.0542721137910034 38.1153783508824 
! Port Impedance         50               0                50               0                
1.8164                         0.998225453879567 -94.0407817239824 2.59656288752867E-06 175.022170749329 2.59656288753999E-06 175.022170749961 0.998229497680783 -94.117106795737 
! Gamma         0.0543277360728827 38.1238120743214 0.0542781515627394 38.1237677783511 
! Port Impedance         50               0                50               0                
1.8168                         0.998217806883345 -94.1479166139987 2.65325163826248E-06 174.912644120851 2.65325163822558E-06 174.912644120556 0.998221887964009 -94.224169253846 
! Gamma         0.0543337780733724 38.1322015058417 0.0542841886709099 38.1321572051532 
! Port Impedance         50               0                50               0                
1.8172                         0.998210092313232 -94.2556040413829 2.71136912618405E-06 174.802549589861 2.71136912614924E-06 174.802549589868 0.998214211284949 -94.3317824169308 
! Gamma         0.0543398194099429 38.1405909366951 0.054290225115734 38.1405466312889 
! Port Impedance         50               0                50               0                
1.8176                         0.998202309305745 -94.3638493498375 2.7709562537168E-06 174.691881666812 2.77095625367811E-06 174.691881666882 0.998206466792367 -94.4399515908858 
! Gamma         0.0543458600828131 38.148980366882  0.0542962608974305 38.1489360567585 
! Port Impedance         50               0                50               0                
1.818                          0.998194456983152 -94.4726579540798 2.83205523617125E-06 174.580634787354 2.83205523619405E-06 174.58063478846  0.998198653621072 -94.5486821517616 
! Gamma         0.0543519000922018 38.1573697964025 0.054302296016218 38.1573254815621 
! Port Impedance         50               0                50               0                
1.8184                         0.998186534453186 -94.5820353410464 2.89470964887982E-06 174.468803314336 2.89470964880508E-06 174.46880331454  0.998190770891633 -94.6579795469488 
! Gamma         0.0543579394383277 38.1657592252568 0.0543083304723151 38.1657149057001 
! Port Impedance         50               0                50               0                
1.8188                         0.998178540808748 -94.6919870711218 2.95896447509588E-06 174.356381533112 2.95896447494344E-06 174.356381533297 0.998182817710092 -94.7678492963829 
! Gamma         0.0543639781214094 38.1741486534453 0.05431436426594 38.1741043291725 
! Port Impedance         50               0                50               0                
1.8192                         0.998170475127607 -94.8025187793929 3.02486615710184E-06 174.243363653818 3.0248661570455E-06 174.243363653777 0.99817479316767 -94.8782969937769 
! Gamma         0.0543700161416653 38.182538080968  0.0543203973973111 38.1824937519797 
! Port Impedance         50               0                50               0                
1.8196                         0.998162336472084 -94.9136361769296 3.09246264864916E-06 174.129743809363 3.0924626485843E-06 174.12974380891  0.998166696340464 -94.9893283078773 
! Gamma         0.0543760534993137 38.1909275078252 0.0543264298666463 38.1908831741219 
! Port Impedance         50               0                50               0                
1.82                           0.998154123888738 -95.025345052092 3.1618034691977E-06 174.015516050326 3.16180346909898E-06 174.015516050783 0.998158526289141 -95.1009489837476 
! Gamma         0.0543820901945729 38.1993169340171 0.0543324616741637 38.1992725955992 
